T0CE8 20797:880 SEGGER J-Link V4.98e Log File (0002ms, 12767ms total)
T0CE8 20797:880 DLL Compiled: May  5 2015 11:00:52 (0002ms, 12767ms total)
T0CE8 20797:880 Logging started @ 2016-02-07 20:46 (0002ms, 12767ms total)
T0CE8 20797:933 JLINK_ExecCommand("Device = ATSAMD20G15", ...)Device "ATSAMD20G15" selected.  returns 0x00 (0000ms, 12767ms total)
T0CE8 20798:065 JLINK_ExecCommand("device = ATSAMD20G15", ...)Device "ATSAMD20G15" selected.  returns 0x00 (0000ms, 12767ms total)
T0CE8 20798:065 JLINK_GetHWStatus(...)  returns 0x00 (0025ms, 12792ms total)
T0CE8 20798:090 JLINK_ClrRESET() (0035ms, 12827ms total)
T0CE8 20798:125 JLINK_SetRESET() (0039ms, 12866ms total)
T0CE8 20798:164 JLINK_ClrRESET() (0030ms, 12896ms total)
T0CE8 20798:206 JLINK_ClrTCK()  returns 0x00 (0035ms, 12932ms total)
T0CE8 20798:241 JLINK_SetRESET() (0015ms, 12947ms total)
T0CE8 20798:256 JLINK_Clock()  returns 0x00 (0024ms, 12971ms total)
T0CE8 20798:281 JLINK_TIF_Select(JLINKARM_TIF_SWD)  returns 0x00 (0005ms, 12977ms total)
T0CE8 20798:286 JLINK_SetSpeed(50) (0003ms, 12980ms total)
T0CE8 20798:289 JLINK_JTAG_StoreRaw(..., 0x108 Bits)  returns 0x00 (0000ms, 12980ms total)
T0CE8 20798:289 JLINK_JTAG_GetU32(BitPos = 227) >0x108 TIF>  returns 0x0BC11477 (0007ms, 12987ms total)
T0CE8 20798:296 JLINK_JTAG_StoreRaw(..., 0x08 Bits)  returns 0x00 (0000ms, 12987ms total)
T0CE8 20798:296 JLINK_JTAG_StoreRaw(..., 0x03 Bits)  returns 0x08 (0000ms, 12987ms total)
T0CE8 20798:296 JLINK_JTAG_StoreRaw(..., 0x28 Bits)  returns 0x0B (0000ms, 12987ms total)
T0CE8 20798:296 JLINK_JTAG_GetU8(BitPos = 8) >0x33 TIF>  returns 0xB9 (0002ms, 12989ms total)
T0CE8 20798:298 JLINK_JTAG_GetU32(BitPos = 11)  returns 0x0BC11477 (0000ms, 12989ms total)
T0CE8 20798:298 JLINK_JTAG_GetU8(BitPos = 43)  returns 0x02 (0000ms, 12989ms total)
T0CE8 20798:298 JLINK_JTAG_StoreRaw(..., 0x08 Bits)  returns 0x00 (0000ms, 12989ms total)
T0CE8 20798:298 JLINK_JTAG_StoreRaw(..., 0x03 Bits)  returns 0x08 (0000ms, 12989ms total)
T0CE8 20798:298 JLINK_JTAG_StoreRaw(..., 0x28 Bits)  returns 0x0B (0000ms, 12989ms total)
T0CE8 20798:298 JLINK_JTAG_GetU8(BitPos = 8) >0x33 TIF>  returns 0x01 (0002ms, 12991ms total)
T0CE8 20798:300 JLINK_JTAG_GetU32(BitPos = 11)  returns 0x00000000 (0000ms, 12991ms total)
T0CE8 20798:300 JLINK_JTAG_GetU8(BitPos = 43)  returns 0x02 (0000ms, 12991ms total)
T0CE8 20798:300 JLINK_JTAG_StoreRaw(..., 0x08 Bits)  returns 0x00 (0000ms, 12991ms total)
T0CE8 20798:300 JLINK_JTAG_StoreRaw(..., 0x03 Bits)  returns 0x08 (0000ms, 12991ms total)
T0CE8 20798:300 JLINK_JTAG_StoreRaw(..., 0x02 Bits)  returns 0x0B (0000ms, 12991ms total)
T0CE8 20798:300 JLINK_JTAG_StoreRaw(..., 0x28 Bits)  returns 0x0D (0000ms, 12991ms total)
T0CE8 20798:300 JLINK_JTAG_GetU8(BitPos = 8) >0x35 TIF>  returns 0x39 (0002ms, 12993ms total)
T0CE8 20798:302 JLINK_JTAG_StoreRaw(..., 0x08 Bits)  returns 0x00 (0000ms, 12993ms total)
T0CE8 20798:302 JLINK_JTAG_StoreRaw(..., 0x03 Bits)  returns 0x08 (0000ms, 12993ms total)
T0CE8 20798:302 JLINK_JTAG_StoreRaw(..., 0x28 Bits)  returns 0x0B (0000ms, 12993ms total)
T0CE8 20798:302 JLINK_JTAG_GetU8(BitPos = 8) >0x33 TIF>  returns 0x09 (0002ms, 12995ms total)
T0CE8 20798:304 JLINK_JTAG_GetU32(BitPos = 11)  returns 0xF0000001 (0000ms, 12995ms total)
T0CE8 20798:304 JLINK_JTAG_GetU8(BitPos = 43)  returns 0x03 (0000ms, 12995ms total)
T0CE8 20798:304 JLINK_WriteMem(0x41002100, 0x0001 Bytes, ...) - Data: 10 >0x108 TIF>Found SWD-DP with ID 0x0BC11477 >0x0D TIF> >0x28 TIF> >0x0D TIF> >0x28 TIF> >0x0D TIF> >0x21 TIF> >0x0D TIF> >0x28 TIF> >0x0D TIF> >0x28 TIF> >0x0D TIF> >0x28 TIF> >0x0D TIF> >0x21 TIF> >0x0D TIF> >0x21 TIF> >0x0D TIF> >0x28 TIF> >0x0D TIF> >0x28 TIF> >0x0D TIF> >0x28 TIF> >0x0D TIF> >0x28 TIF> >0x0D TIF> >0x28 TIF> >0x0D TIF> >0x28 TIF> >0x0D TIF> >0x21 TIF> >0x0D TIF> >0x21 TIF> >0x0D TIF> >0x28 TIF> >0x0D TIF>
 >0x28 TIF> >0x108 TIF>Found SWD-DP with ID 0x0BC11477 >0x0D TIF> >0x21 TIF> >0x0D TIF> >0x28 TIF> >0x0D TIF> >0x28 TIF> >0x0D TIF> >0x21 TIF> >0x0D TIF> >0x28 TIF> >0x0D TIF> >0x21 TIF> >0x0D TIF> >0x21 TIF> >0x0D TIF> >0x21 TIF> >0x0D TIF> >0x28 TIF> >0x0D TIF> >0x28 TIF> >0x0D TIF> >0x28 TIF> >0x0D TIF> >0x21 TIF> >0x0D TIF> >0x21 TIF> >0x0D TIF> >0x21 TIF> >0x0D TIF> >0x28 TIF> >0x0D TIF> >0x28 TIF> >0x0D TIF> >0x21 TIF> >0x0D TIF> >0x28 TIF> >0x0D TIF> >0x28 TIF> >0x0D TIF> >0x28 TIF> >0x0D TIF>
 >0x21 TIF> >0x0D TIF> >0x21 TIF> >0x0D TIF> >0x28 TIF> >0x0D TIF> >0x21 TIF> >0x0D TIF> >0x21 TIF>Found Cortex-M0 r0p1, Little endian. -- CPU_WriteMem(4 bytes @ 0xE0002000) -- CPU_ReadMem(4 bytes @ 0xE000EDF0) -- CPU_ReadMem(4 bytes @ 0xE0002000)FPUnit: 4 code (BP) slots and 0 literal slots -- CPU_ReadMem(4 bytes @ 0xE000EDFC) -- CPU_ReadMem(4 bytes @ 0xE0001000) -- CPU_WriteMem(4 bytes @ 0xE0001000)CoreSight components:ROMTbl 0 @ 41003000 -- CPU_ReadMem(16 bytes @ 0x41003000)
 -- CPU_ReadMem(16 bytes @ 0xE00FFFF0) -- CPU_ReadMem(16 bytes @ 0xE00FFFE0)ROMTbl 0 [0]: 9F0FC000, CID: B105100D, PID: 000BB4C0 ROM TableROMTbl 1 @ E00FF000 -- CPU_ReadMem(16 bytes @ 0xE00FF000) -- CPU_ReadMem(16 bytes @ 0xE000EFF0) -- CPU_ReadMem(16 bytes @ 0xE000EFE0)ROMTbl 1 [0]: FFF0F000, CID: B105E00D, PID: 000BB008 SCS -- CPU_ReadMem(16 bytes @ 0xE0001FF0) -- CPU_ReadMem(16 bytes @ 0xE0001FE0)ROMTbl 1 [1]: FFF02000, CID: B105E00D, PID: 000BB00A DWT -- CPU_ReadMem(16 bytes @ 0xE0002FF0)
 -- CPU_ReadMem(16 bytes @ 0xE0002FE0)ROMTbl 1 [2]: FFF03000, CID: B105E00D, PID: 000BB00B FPB -- CPU is running -- CPU_WriteMem(1 bytes @ 0x41002100)  returns 0x01 (0305ms, 13300ms total)
T0CE8 20798:609 JLINK_ReadMem (0x41002101, 0x0001 Bytes, ...) -- CPU is running -- CPU_ReadMem(1 bytes @ 0x41002101) - Data: 00  returns 0x00 (0008ms, 13308ms total)
T0CE8 20798:817 JLINK_ReadMem (0x41002101, 0x0001 Bytes, ...) -- CPU is running -- CPU_ReadMem(1 bytes @ 0x41002101) - Data: 01  returns 0x00 (0007ms, 13315ms total)
T0CE8 20798:824 JLINK_ExecCommand("ProjectFile = C:\git\thin18\ARM software\thin18\jlink.config", ...)  returns 0x00 (0001ms, 13316ms total)
T0CE8 20798:864 JLINK_ExecCommand("Device = ATSAMD20G15", ...)Device "ATSAMD20G15" selected.  returns 0x00 (0000ms, 13316ms total)
T0CE8 20798:864 JLINK_TIF_Select(JLINKARM_TIF_SWD)  returns 0x00 (0000ms, 13316ms total)
T0CE8 20798:864 JLINK_SetSpeed(4000) (0002ms, 13318ms total)
T0CE8 20798:866 JLINK_ResetPullsRESET(OFF) (0000ms, 13318ms total)
T0CE8 20798:866 JLINK_Connect() >0x108 TIF>Found SWD-DP with ID 0x0BC11477 >0x0D TIF> >0x28 TIF> >0x0D TIF> >0x28 TIF> >0x0D TIF> >0x21 TIF> >0x0D TIF> >0x28 TIF> >0x0D TIF> >0x28 TIF> >0x0D TIF> >0x28 TIF> >0x0D TIF> >0x21 TIF> >0x0D TIF> >0x21 TIF> >0x0D TIF> >0x28 TIF> >0x0D TIF> >0x28 TIF> >0x0D TIF> >0x28 TIF> >0x0D TIF> >0x28 TIF> >0x0D TIF> >0x28 TIF> >0x0D TIF> >0x28 TIF> >0x0D TIF> >0x21 TIF> >0x0D TIF> >0x21 TIF> >0x0D TIF> >0x28 TIF> >0x0D TIF> >0x28 TIF> >0x108 TIF>
Found SWD-DP with ID 0x0BC11477 >0x0D TIF> >0x21 TIF> >0x0D TIF> >0x28 TIF> >0x0D TIF> >0x28 TIF> >0x0D TIF> >0x21 TIF> >0x0D TIF> >0x28 TIF> >0x0D TIF> >0x21 TIF> >0x0D TIF> >0x21 TIF> >0x0D TIF> >0x21 TIF> >0x0D TIF> >0x28 TIF> >0x0D TIF> >0x28 TIF> >0x0D TIF> >0x28 TIF> >0x0D TIF> >0x21 TIF> >0x0D TIF> >0x21 TIF> >0x0D TIF> >0x21 TIF> >0x0D TIF> >0x28 TIF> >0x0D TIF> >0x28 TIF> >0x0D TIF> >0x21 TIF> >0x0D TIF> >0x28 TIF> >0x0D TIF> >0x28 TIF> >0x0D TIF> >0x28 TIF> >0x0D TIF> >0x21 TIF> >0x0D TIF>
 >0x21 TIF> >0x0D TIF> >0x28 TIF> >0x0D TIF> >0x21 TIF> >0x0D TIF> >0x21 TIF>Found Cortex-M0 r0p1, Little endian. -- CPU_WriteMem(4 bytes @ 0xE0002000) -- CPU_ReadMem(4 bytes @ 0xE000EDF0) -- CPU_ReadMem(4 bytes @ 0xE0002000)FPUnit: 4 code (BP) slots and 0 literal slots -- CPU_ReadMem(4 bytes @ 0xE000EDFC) -- CPU_ReadMem(4 bytes @ 0xE0001000) -- CPU_WriteMem(4 bytes @ 0xE0001000)CoreSight components:ROMTbl 0 @ 41003000 -- CPU_ReadMem(16 bytes @ 0x41003000) -- CPU_ReadMem(16 bytes @ 0xE00FFFF0)
 -- CPU_ReadMem(16 bytes @ 0xE00FFFE0)ROMTbl 0 [0]: 9F0FC000, CID: B105100D, PID: 000BB4C0 ROM TableROMTbl 1 @ E00FF000 -- CPU_ReadMem(16 bytes @ 0xE00FF000) -- CPU_ReadMem(16 bytes @ 0xE000EFF0) -- CPU_ReadMem(16 bytes @ 0xE000EFE0)ROMTbl 1 [0]: FFF0F000, CID: B105E00D, PID: 000BB008 SCS -- CPU_ReadMem(16 bytes @ 0xE0001FF0) -- CPU_ReadMem(16 bytes @ 0xE0001FE0)ROMTbl 1 [1]: FFF02000, CID: B105E00D, PID: 000BB00A DWT -- CPU_ReadMem(16 bytes @ 0xE0002FF0) -- CPU_ReadMem(16 bytes @ 0xE0002FE0)
ROMTbl 1 [2]: FFF03000, CID: B105E00D, PID: 000BB00B FPB  returns 0x00 (0133ms, 13451ms total)
T0CE8 20799:000 JLINK_GetDebugInfo(0x100) -- Value=0x41003003  returns 0x00 (0000ms, 13451ms total)
T0CE8 20799:000 JLINK_ReadMem (0x41003FF0, 0x0010 Bytes, ...) -- CPU is running -- CPU_ReadMem(16 bytes @ 0x41003FF0) - Data: 0D 00 00 00 10 00 00 00 05 00 00 00 B1 00 00 00  returns 0x00 (0001ms, 13452ms total)
T0CE8 20799:001 JLINK_ReadMem (0x41003FD0, 0x0020 Bytes, ...) -- CPU is running -- CPU_ReadMem(32 bytes @ 0x41003FD0) - Data: 00 00 00 00 00 00 00 00 00 00 00 00 00 00 00 00 ...  returns 0x00 (0001ms, 13453ms total)
T0CE8 20799:002 JLINK_ReadMemU32(0x41003000, 0x0001 Items, ...) -- CPU is running -- CPU_ReadMem(4 bytes @ 0x41003000) - Data: 03 C0 0F 9F  returns 0x01 (0001ms, 13454ms total)
T0CE8 20799:003 JLINK_ReadMem (0xE00FFFF0, 0x0010 Bytes, ...) -- CPU is running -- CPU_ReadMem(16 bytes @ 0xE00FFFF0) - Data: 0D 00 00 00 10 00 00 00 05 00 00 00 B1 00 00 00  returns 0x00 (0001ms, 13455ms total)
T0CE8 20799:004 JLINK_ReadMem (0xE00FFFD0, 0x0020 Bytes, ...) -- CPU is running -- CPU_ReadMem(32 bytes @ 0xE00FFFD0) - Data: 04 00 00 00 00 00 00 00 00 00 00 00 00 00 00 00 ...  returns 0x00 (0001ms, 13456ms total)
T0CE8 20799:005 JLINK_ReadMemU32(0xE00FF000, 0x0001 Items, ...) -- CPU is running -- CPU_ReadMem(4 bytes @ 0xE00FF000) - Data: 03 F0 F0 FF  returns 0x01 (0001ms, 13457ms total)
T0CE8 20799:006 JLINK_ReadMem (0xE000EFF0, 0x0010 Bytes, ...) -- CPU is running -- CPU_ReadMem(16 bytes @ 0xE000EFF0) - Data: 0D 00 00 00 E0 00 00 00 05 00 00 00 B1 00 00 00  returns 0x00 (0001ms, 13458ms total)
T0CE8 20799:007 JLINK_ReadMem (0xE000EFD0, 0x0020 Bytes, ...) -- CPU is running -- CPU_ReadMem(32 bytes @ 0xE000EFD0) - Data: 04 00 00 00 00 00 00 00 00 00 00 00 00 00 00 00 ...  returns 0x00 (0001ms, 13459ms total)
T0CE8 20799:008 JLINK_ReadMemU32(0xE00FF004, 0x0001 Items, ...) -- CPU is running -- CPU_ReadMem(4 bytes @ 0xE00FF004) - Data: 03 20 F0 FF  returns 0x01 (0001ms, 13460ms total)
T0CE8 20799:009 JLINK_ReadMem (0xE0001FF0, 0x0010 Bytes, ...) -- CPU is running -- CPU_ReadMem(16 bytes @ 0xE0001FF0) - Data: 0D 00 00 00 E0 00 00 00 05 00 00 00 B1 00 00 00  returns 0x00 (0001ms, 13461ms total)
T0CE8 20799:010 JLINK_ReadMem (0xE0001FD0, 0x0020 Bytes, ...) -- CPU is running -- CPU_ReadMem(32 bytes @ 0xE0001FD0) - Data: 04 00 00 00 00 00 00 00 00 00 00 00 00 00 00 00 ...  returns 0x00 (0001ms, 13462ms total)
T0CE8 20799:011 JLINK_ReadMemU32(0xE00FF008, 0x0001 Items, ...) -- CPU is running -- CPU_ReadMem(4 bytes @ 0xE00FF008) - Data: 03 30 F0 FF  returns 0x01 (0001ms, 13463ms total)
T0CE8 20799:012 JLINK_ReadMem (0xE0002FF0, 0x0010 Bytes, ...) -- CPU is running -- CPU_ReadMem(16 bytes @ 0xE0002FF0) - Data: 0D 00 00 00 E0 00 00 00 05 00 00 00 B1 00 00 00  returns 0x00 (0001ms, 13464ms total)
T0CE8 20799:013 JLINK_ReadMem (0xE0002FD0, 0x0020 Bytes, ...) -- CPU is running -- CPU_ReadMem(32 bytes @ 0xE0002FD0) - Data: 04 00 00 00 00 00 00 00 00 00 00 00 00 00 00 00 ...  returns 0x00 (0001ms, 13465ms total)
T0CE8 20799:014 JLINK_ReadMemU32(0xE00FF00C, 0x0001 Items, ...) -- CPU is running -- CPU_ReadMem(4 bytes @ 0xE00FF00C) - Data: 00 00 00 00  returns 0x01 (0001ms, 13466ms total)
T0CE8 20799:015 JLINK_ReadMemU32(0x41003004, 0x0001 Items, ...) -- CPU is running -- CPU_ReadMem(4 bytes @ 0x41003004) - Data: 00 00 00 00  returns 0x01 (0001ms, 13467ms total)
T0CE8 20799:016 JLINK_ReadMem (0xE0001000, 0x0004 Bytes, ...) -- CPU is running -- CPU_ReadMem(4 bytes @ 0xE0001000) - Data: 00 00 00 20  returns 0x00 (0001ms, 13468ms total)
T0CE8 20799:017 JLINK_ReadMem (0xE0001000, 0x0004 Bytes, ...) -- CPU is running -- CPU_ReadMem(4 bytes @ 0xE0001000) - Data: 00 00 00 20  returns 0x00 (0001ms, 13469ms total)
T0CE8 20799:018 JLINK_ReadMem (0xE0001028, 0x0004 Bytes, ...) -- CPU is running -- CPU_ReadMem(4 bytes @ 0xE0001028) - Data: 00 00 00 00  returns 0x00 (0001ms, 13470ms total)
T0CE8 20799:019 JLINK_WriteMem(0xE0001028, 0x0004 Bytes, ...) - Data: 00 01 00 00 -- CPU is running -- CPU_WriteMem(4 bytes @ 0xE0001028)  returns 0x04 (0001ms, 13471ms total)
T0CE8 20799:020 JLINK_ReadMem (0xE0001028, 0x0004 Bytes, ...) -- CPU is running -- CPU_ReadMem(4 bytes @ 0xE0001028) - Data: 00 00 00 00  returns 0x00 (0001ms, 13472ms total)
T0CE8 20799:021 JLINK_ReadMem (0xE0001038, 0x0004 Bytes, ...) -- CPU is running -- CPU_ReadMem(4 bytes @ 0xE0001038) - Data: 00 00 00 00  returns 0x00 (0001ms, 13473ms total)
T0CE8 20799:022 JLINK_WriteMem(0xE0001038, 0x0004 Bytes, ...) - Data: 00 01 00 00 -- CPU is running -- CPU_WriteMem(4 bytes @ 0xE0001038)  returns 0x04 (0001ms, 13474ms total)
T0CE8 20799:023 JLINK_ReadMem (0xE0001038, 0x0004 Bytes, ...) -- CPU is running -- CPU_ReadMem(4 bytes @ 0xE0001038) - Data: 00 00 00 00  returns 0x00 (0001ms, 13475ms total)
T0CE8 20799:024 JLINK_ReadMem (0xE0001024, 0x0004 Bytes, ...) -- CPU is running -- CPU_ReadMem(4 bytes @ 0xE0001024) - Data: 00 00 00 00  returns 0x00 (0001ms, 13476ms total)
T0CE8 20799:025 JLINK_WriteMem(0xE0001024, 0x0004 Bytes, ...) - Data: 1F 00 00 00 -- CPU is running -- CPU_WriteMem(4 bytes @ 0xE0001024)  returns 0x04 (0001ms, 13477ms total)
T0CE8 20799:026 JLINK_ReadMem (0xE0001024, 0x0004 Bytes, ...) -- CPU is running -- CPU_ReadMem(4 bytes @ 0xE0001024) - Data: 1F 00 00 00  returns 0x00 (0001ms, 13478ms total)
T0CE8 20799:027 JLINK_ReadMem (0xE0001034, 0x0004 Bytes, ...) -- CPU is running -- CPU_ReadMem(4 bytes @ 0xE0001034) - Data: 00 00 00 00  returns 0x00 (0001ms, 13479ms total)
T0CE8 20799:028 JLINK_WriteMem(0xE0001034, 0x0004 Bytes, ...) - Data: 1F 00 00 00 -- CPU is running -- CPU_WriteMem(4 bytes @ 0xE0001034)  returns 0x04 (0001ms, 13480ms total)
T0CE8 20799:029 JLINK_ReadMem (0xE0001034, 0x0004 Bytes, ...) -- CPU is running -- CPU_ReadMem(4 bytes @ 0xE0001034) - Data: 1F 00 00 00  returns 0x00 (0001ms, 13481ms total)
T0CE8 20799:030 JLINK_ReadMem (0xE0001028, 0x0004 Bytes, ...) -- CPU is running -- CPU_ReadMem(4 bytes @ 0xE0001028) - Data: 00 00 00 00  returns 0x00 (0001ms, 13482ms total)
T0CE8 20799:031 JLINK_ReadMem (0xE0001038, 0x0004 Bytes, ...) -- CPU is running -- CPU_ReadMem(4 bytes @ 0xE0001038) - Data: 00 00 00 00  returns 0x00 (0001ms, 13483ms total)
T0CE8 20799:032 JLINK_WriteMem(0xE0001020, 0x0004 Bytes, ...) - Data: 00 00 00 00 -- CPU is running -- CPU_WriteMem(4 bytes @ 0xE0001020)  returns 0x04 (0001ms, 13484ms total)
T0CE8 20799:033 JLINK_WriteMem(0xE0001024, 0x0004 Bytes, ...) - Data: 00 00 00 00 -- CPU is running -- CPU_WriteMem(4 bytes @ 0xE0001024)  returns 0x04 (0001ms, 13485ms total)
T0CE8 20799:034 JLINK_WriteMem(0xE0001028, 0x0004 Bytes, ...) - Data: 00 00 00 00 -- CPU is running -- CPU_WriteMem(4 bytes @ 0xE0001028)  returns 0x04 (0001ms, 13486ms total)
T0CE8 20799:035 JLINK_WriteMem(0xE0001030, 0x0004 Bytes, ...) - Data: 00 00 00 00 -- CPU is running -- CPU_WriteMem(4 bytes @ 0xE0001030)  returns 0x04 (0001ms, 13487ms total)
T0CE8 20799:036 JLINK_WriteMem(0xE0001034, 0x0004 Bytes, ...) - Data: 00 00 00 00 -- CPU is running -- CPU_WriteMem(4 bytes @ 0xE0001034)  returns 0x04 (0001ms, 13488ms total)
T0CE8 20799:037 JLINK_WriteMem(0xE0001038, 0x0004 Bytes, ...) - Data: 00 00 00 00 -- CPU is running -- CPU_WriteMem(4 bytes @ 0xE0001038)  returns 0x04 (0001ms, 13489ms total)
T0CE8 20799:038 JLINK_Halt()  returns 0x00 (0004ms, 13493ms total)
T0CE8 20799:044 JLINK_JTAG_GetDeviceID(DeviceIndex = 0)  returns 0x00 (0001ms, 13494ms total)
T0CE8 20799:045 JLINK_ReadMemU32(0x41002018, 0x0001 Items, ...) -- CPU_ReadMem(4 bytes @ 0x41002018) - Data: 08 13 00 10  returns 0x01 (0001ms, 13495ms total)
T0CE8 20799:050 JLINK_BeginDownload(Flags = 0x00) (0000ms, 13495ms total)
T0CE8 20799:050 JLINK_WriteMem(0x00000000, 0x25F0 Bytes, ...) - Data: B8 09 00 20 F5 08 00 00 89 09 00 00 89 09 00 00 ...  returns 0x25F0 (0001ms, 13496ms total)
T0CE8 20799:051 JLINK_WriteMem(0x000025F0, 0x0430 Bytes, ...) - Data: 00 00 00 00 EC 02 00 20 54 03 00 20 BC 03 00 20 ...  returns 0x430 (0000ms, 13496ms total)
T0D30 20799:075 JLINK_IsHalted()  returns TRUE (0003ms, 13499ms total)
T0D30 20799:078 JLINK_GetMOEs(...) -- CPU_ReadMem(4 bytes @ 0xE000ED30) -- CPU_WriteMem(4 bytes @ 0xE000ED30)  returns 0x01 (0002ms, 13498ms total)
T0D30 20799:080 JLINK_ReadReg(R15 (PC)) -- -------------------------------------- -- Start of determining dirty areas in flash cache -- End of determining dirty areas -- Start of preparing flash programming -- Calculating RAM usage -- RAM usage = 2796 Bytes -- Preserving registers -- Preparing memory -- Determining CPU clock frequency -- CPU clock frequency: 1333 kHz -- CPU frequency = 1333 kHz -- Preparing target -- Downloading RAMCode -- Using alternate TurboMode RAMCode -- Checking target RAM
 -- Preparing RAMCode -- End of preparing flash programmingCPU is running at very low speed (1333 kHz). Readback will be performed instead of CRC calculation. -- CPU is running at 1333 kHz. -- Start of comparing flash -- Read back was estimated as fastest method -- Comparing range 0x0000 - 0x0FFF (16 Sectors, 4 KB), using multi-block CRC calculation -- CPU is running -- CPU_ReadMem(256 bytes @ 0x00000000) -- CPU is running -- CPU_ReadMem(256 bytes @ 0x00000100) -- CPU is running
 -- CPU_ReadMem(256 bytes @ 0x00000200) -- CPU is running -- CPU_ReadMem(256 bytes @ 0x00000300) -- CPU is running -- CPU_ReadMem(256 bytes @ 0x00000400) -- CPU is running -- CPU_ReadMem(256 bytes @ 0x00000500) -- CPU is running -- CPU_ReadMem(256 bytes @ 0x00000600) -- CPU is running -- CPU_ReadMem(256 bytes @ 0x00000700) -- CPU is running -- CPU_ReadMem(256 bytes @ 0x00000800) -- CPU is running -- CPU_ReadMem(256 bytes @ 0x00000900) -- CPU is running -- CPU_ReadMem(256 bytes @ 0x00000A00)
 -- CPU is running -- CPU_ReadMem(256 bytes @ 0x00000B00) -- CPU is running -- CPU_ReadMem(256 bytes @ 0x00000C00) -- CPU is running -- CPU_ReadMem(256 bytes @ 0x00000D00) -- CPU is running -- CPU_ReadMem(256 bytes @ 0x00000E00) -- CPU is running -- CPU_ReadMem(256 bytes @ 0x00000F00) -- CRC does not match for sectors 0-15 -- Comparing range 0x1000 - 0x1FFF (16 Sectors, 4 KB), using multi-block CRC calculation -- CPU is running -- CPU_ReadMem(256 bytes @ 0x00001000) -- CPU is running
 -- CPU_ReadMem(256 bytes @ 0x00001100) -- CPU is running -- CPU_ReadMem(256 bytes @ 0x00001200) -- CPU is running -- CPU_ReadMem(256 bytes @ 0x00001300) -- CPU is running -- CPU_ReadMem(256 bytes @ 0x00001400) -- CPU is running -- CPU_ReadMem(256 bytes @ 0x00001500) -- CPU is running -- CPU_ReadMem(256 bytes @ 0x00001600) -- CPU is running -- CPU_ReadMem(256 bytes @ 0x00001700) -- CPU is running -- CPU_ReadMem(256 bytes @ 0x00001800) -- CPU is running -- CPU_ReadMem(256 bytes @ 0x00001900)
 -- CPU is running -- CPU_ReadMem(256 bytes @ 0x00001A00) -- CPU is running -- CPU_ReadMem(256 bytes @ 0x00001B00) -- CPU is running -- CPU_ReadMem(256 bytes @ 0x00001C00) -- CPU is running -- CPU_ReadMem(256 bytes @ 0x00001D00) -- CPU is running -- CPU_ReadMem(256 bytes @ 0x00001E00) -- CPU is running -- CPU_ReadMem(256 bytes @ 0x00001F00) -- CRC does not match for sectors 0-15 -- Comparing range 0x2000 - 0x2AFF (11 Sectors, 2 KB), using multi-block CRC calculation -- CPU is running
 -- CPU_ReadMem(256 bytes @ 0x00002000) -- CPU is running -- CPU_ReadMem(256 bytes @ 0x00002100) -- CPU is running -- CPU_ReadMem(256 bytes @ 0x00002200) -- CPU is running -- CPU_ReadMem(256 bytes @ 0x00002300) -- CPU is running -- CPU_ReadMem(256 bytes @ 0x00002400) -- CPU is running -- CPU_ReadMem(256 bytes @ 0x00002500) -- CPU is running -- CPU_ReadMem(256 bytes @ 0x00002600) -- CPU is running -- CPU_ReadMem(256 bytes @ 0x00002700) -- CPU is running -- CPU_ReadMem(256 bytes @ 0x00002800)
 -- CPU is running -- CPU_ReadMem(256 bytes @ 0x00002900) -- CPU is running -- CPU_ReadMem(256 bytes @ 0x00002A00) -- CRC does not match for sectors 0-10 -- End of comparing flash -- Start of erasing sectors -- End of erasing sectors -- Start of flash programming -- Programming range 0x00000000 - 0x000003FF (004 Sectors, 1024 Bytes) -- Programming range 0x00000400 - 0x000007FF (004 Sectors, 1024 Bytes) -- Programming range 0x00000800 - 0x00000BFF (004 Sectors, 1024 Bytes)
 -- Programming range 0x00000C00 - 0x00000FFF (004 Sectors, 1024 Bytes) -- Programming range 0x00001000 - 0x000013FF (004 Sectors, 1024 Bytes) -- Programming range 0x00001400 - 0x000017FF (004 Sectors, 1024 Bytes) -- Programming range 0x00001800 - 0x00001BFF (004 Sectors, 1024 Bytes) -- Programming range 0x00001C00 - 0x00001FFF (004 Sectors, 1024 Bytes) -- Programming range 0x00002000 - 0x000023FF (004 Sectors, 1024 Bytes) -- Programming range 0x00002400 - 0x000027FF (004 Sectors, 1024 Bytes)
 -- Programming range 0x00002800 - 0x00002AFF (003 Sectors, 768 Bytes) -- End of flash programming -- Flash programming performed for 1 range (11008 bytes) -- 0x0000 - 0x2AFF (043 Sectors, 10 KB) -- Start of verifying flash -- Checksum calculation was estimated as fastest method -- End of verifying flash -- Start of restoring -- Restore RAMCode -- Restore content of target memory -- Restore target -- Restore memory -- Restore content of registers -- End of restoring
 -- Total time needed: 0.419s (Prepare: 0.097s, Compare: 0.132s, Erase: 0.000s, Program: 0.168s, Verify: 0.014s, Restore: 0.006s)  returns 0xFFFFFFFE (0424ms, 13922ms total)
T13BC 20799:620 JLINK_Halt()  returns 0x00 (0003ms, 13925ms total)
T13BC 20799:623 JLINK_ReadReg(R15 (PC))  returns 0xFFFFFFFE (0000ms, 13925ms total)
T13BC 20799:623 JLINK_ReadReg(R13 (SP))  returns 0xFFFFFFFC (0000ms, 13925ms total)
T13BC 20799:638 JLINK_ReadReg(R0)  returns 0x2000093D (0000ms, 13925ms total)
T13BC 20799:638 JLINK_ReadReg(R1)  returns 0x0000003F (0000ms, 13925ms total)
T13BC 20799:638 JLINK_ReadReg(R2)  returns 0x00000000 (0000ms, 13925ms total)
T13BC 20799:638 JLINK_ReadReg(R3)  returns 0x000006D1 (0000ms, 13925ms total)
T13BC 20799:638 JLINK_ReadReg(R4)  returns 0x2000065C (0000ms, 13925ms total)
T13BC 20799:638 JLINK_ReadReg(R5)  returns 0x2000067C (0000ms, 13925ms total)
T13BC 20799:638 JLINK_ReadReg(R6)  returns 0x2000067C (0000ms, 13925ms total)
T13BC 20799:638 JLINK_ReadReg(R7)  returns 0x20000930 (0001ms, 13926ms total)
T13BC 20799:639 JLINK_ReadReg(R8)  returns 0xFDD3DBFF (0000ms, 13926ms total)
T13BC 20799:639 JLINK_ReadReg(R9)  returns 0xFFBFFE3F (0000ms, 13926ms total)
T13BC 20799:639 JLINK_ReadReg(R10)  returns 0xFB5FFF75 (0000ms, 13926ms total)
T13BC 20799:639 JLINK_ReadReg(R11)  returns 0x7C7F7EFF (0000ms, 13926ms total)
T13BC 20799:639 JLINK_ReadReg(R12)  returns 0xFF77FFFF (0000ms, 13926ms total)
T13BC 20799:639 JLINK_ReadReg(R13 (SP))  returns 0xFFFFFFFC (0000ms, 13926ms total)
T13BC 20799:639 JLINK_ReadReg(R14)  returns 0x000007FD (0000ms, 13926ms total)
T13BC 20799:639 JLINK_ReadReg(R15 (PC))  returns 0xFFFFFFFE (0000ms, 13926ms total)
T13BC 20799:639 JLINK_ReadReg(XPSR)  returns 0x01000000 (0000ms, 13926ms total)
T13BC 20799:639 JLINK_ReadReg(MSP)  returns 0xFFFFFFFC (0000ms, 13926ms total)
T13BC 20799:639 JLINK_ReadReg(PSP)  returns 0xBEFBA3E8 (0000ms, 13926ms total)
T13BC 20799:639 JLINK_ReadReg(PRIMASK)  returns 0x00000000 (0000ms, 13926ms total)
T13BC 20799:639 JLINK_ReadReg(BASEPRI)  returns 0x00000000 (0000ms, 13926ms total)
T13BC 20799:639 JLINK_ReadReg(FAULTMASK)  returns 0x00000000 (0000ms, 13926ms total)
T13BC 20799:639 JLINK_ReadReg(CONTROL)  returns 0x00000000 (0000ms, 13926ms total)
T13BC 20799:672 JLINK_EndDownload()  returns 0x00 (0001ms, 13927ms total)
T13BC 20799:673 JLINK_Reset() -- CPU_ReadMem(4 bytes @ 0x20000000) -- CPU_WriteMem(4 bytes @ 0x20000000) -- CPU_ReadMem(4 bytes @ 0xE000EDFC) -- CPU_WriteMem(4 bytes @ 0xE000EDFC) -- CPU_WriteMem(4 bytes @ 0xE000ED0C) -- CPU is running -- CPU_ReadMem(4 bytes @ 0xE000EDF0) -- CPU is running -- CPU_ReadMem(4 bytes @ 0x41002100) -- CPU is running -- CPU_WriteMem(4 bytes @ 0x41002100) -- CPU is running -- CPU_ReadMem(4 bytes @ 0x41002100) -- CPU is running -- CPU_WriteMem(4 bytes @ 0xE000EDFC)
 -- CPU_WriteMem(4 bytes @ 0xE0002000) -- CPU_ReadMem(4 bytes @ 0xE000EDFC) -- CPU_ReadMem(4 bytes @ 0xE0001000) -- CPU_WriteMem(4 bytes @ 0xE0001000) (0020ms, 13947ms total)
T0D30 20799:693 JLINK_IsHalted()  returns TRUE (0000ms, 13947ms total)
T0D30 20799:693 JLINK_GetMOEs(...) -- CPU_ReadMem(4 bytes @ 0xE000ED30) -- CPU_WriteMem(4 bytes @ 0xE000ED30)  returns 0x01 (0003ms, 13950ms total)
T0D30 20799:696 JLINK_ReadReg(R15 (PC))  returns 0x000008F4 (0000ms, 13950ms total)
T13BC 20799:704 JLINK_ReadReg(R15 (PC))  returns 0x000008F4 (0000ms, 13950ms total)
T13BC 20799:704 JLINK_ReadReg(R13 (SP))  returns 0x200009B8 (0000ms, 13950ms total)
T13BC 20799:716 JLINK_ReadMemHW(0x000008F4, 0x0004 Bytes, ...) -- CPU_ReadMem(4 bytes @ 0x000008F4) - Data: 80 B5 82 B0  returns 0x00 (0002ms, 13952ms total)
T13BC 20799:731 JLINK_ReadReg(R0)  returns 0x40001000 (0000ms, 13952ms total)
T13BC 20799:731 JLINK_ReadReg(R1)  returns 0x00000000 (0000ms, 13952ms total)
T13BC 20799:732 JLINK_ReadReg(R2)  returns 0x00000000 (0000ms, 13952ms total)
T13BC 20799:732 JLINK_ReadReg(R3)  returns 0x31E595C9 (0000ms, 13952ms total)
T13BC 20799:732 JLINK_ReadReg(R4)  returns 0x2000065C (0000ms, 13952ms total)
T13BC 20799:732 JLINK_ReadReg(R5)  returns 0x2000067C (0000ms, 13952ms total)
T13BC 20799:732 JLINK_ReadReg(R6)  returns 0x2000067C (0000ms, 13952ms total)
T13BC 20799:732 JLINK_ReadReg(R7)  returns 0x20000930 (0000ms, 13952ms total)
T13BC 20799:732 JLINK_ReadReg(R8)  returns 0xFDD3DBFF (0000ms, 13952ms total)
T13BC 20799:732 JLINK_ReadReg(R9)  returns 0xFFBFFE3F (0000ms, 13952ms total)
T13BC 20799:732 JLINK_ReadReg(R10)  returns 0xFB5FFF75 (0000ms, 13952ms total)
T13BC 20799:732 JLINK_ReadReg(R11)  returns 0x7C7F7EFF (0000ms, 13952ms total)
T13BC 20799:732 JLINK_ReadReg(R12)  returns 0xFF77FFFF (0000ms, 13952ms total)
T13BC 20799:732 JLINK_ReadReg(R13 (SP))  returns 0x200009B8 (0000ms, 13952ms total)
T13BC 20799:732 JLINK_ReadReg(R14)  returns 0x20000327 (0000ms, 13952ms total)
T13BC 20799:732 JLINK_ReadReg(R15 (PC))  returns 0x000008F4 (0000ms, 13952ms total)
T13BC 20799:732 JLINK_ReadReg(XPSR)  returns 0x21000000 (0000ms, 13952ms total)
T13BC 20799:732 JLINK_ReadReg(MSP)  returns 0x200009B8 (0000ms, 13952ms total)
T13BC 20799:732 JLINK_ReadReg(PSP)  returns 0xBEFBA3E8 (0000ms, 13952ms total)
T13BC 20799:732 JLINK_ReadReg(PRIMASK)  returns 0x00000000 (0000ms, 13952ms total)
T13BC 20799:732 JLINK_ReadReg(BASEPRI)  returns 0x00000000 (0000ms, 13952ms total)
T13BC 20799:732 JLINK_ReadReg(FAULTMASK)  returns 0x00000000 (0000ms, 13952ms total)
T13BC 20799:732 JLINK_ReadReg(CONTROL)  returns 0x00000000 (0000ms, 13952ms total)
T13BC 20799:733 JLINK_ReadMem (0x20000326, 0x0004 Bytes, ...) -- CPU_ReadMem(64 bytes @ 0x20000300) -- Updating C cache (64 bytes @ 0x20000300) -- Read from C cache (4 bytes @ 0x20000326) - Data: 01 BD 70 B5  returns 0x00 (0002ms, 13954ms total)
T13BC 20799:735 JLINK_ReadMem (0x20000000, 0x0002 Bytes, ...) -- CPU_ReadMem(64 bytes @ 0x20000000) -- Updating C cache (64 bytes @ 0x20000000) -- Read from C cache (2 bytes @ 0x20000000) - Data: 00 00  returns 0x00 (0002ms, 13956ms total)
T13BC 20799:737 JLINK_ReadMem (0x20000002, 0x0002 Bytes, ...) -- Read from C cache (2 bytes @ 0x20000002) - Data: 00 00  returns 0x00 (0000ms, 13956ms total)
T13BC 20799:738 JLINK_ReadMem (0x20000004, 0x0002 Bytes, ...) -- Read from C cache (2 bytes @ 0x20000004) - Data: 00 00  returns 0x00 (0000ms, 13956ms total)
T13BC 20799:738 JLINK_ReadMem (0x20000006, 0x0002 Bytes, ...) -- Read from C cache (2 bytes @ 0x20000006) - Data: 00 00  returns 0x00 (0000ms, 13956ms total)
T13BC 20799:738 JLINK_ReadMem (0x20000008, 0x0002 Bytes, ...) -- Read from C cache (2 bytes @ 0x20000008) - Data: 00 00  returns 0x00 (0000ms, 13956ms total)
T13BC 20799:739 JLINK_ReadMem (0x2000000A, 0x0002 Bytes, ...) -- Read from C cache (2 bytes @ 0x2000000A) - Data: 00 00  returns 0x00 (0000ms, 13956ms total)
T13BC 20799:739 JLINK_ReadMem (0x2000000C, 0x0002 Bytes, ...) -- Read from C cache (2 bytes @ 0x2000000C) - Data: 00 00  returns 0x00 (0000ms, 13956ms total)
T13BC 20799:740 JLINK_ReadMem (0x2000000E, 0x0002 Bytes, ...) -- Read from C cache (2 bytes @ 0x2000000E) - Data: 00 00  returns 0x00 (0000ms, 13956ms total)
T13BC 20799:740 JLINK_ReadMem (0x20000010, 0x0002 Bytes, ...) -- Read from C cache (2 bytes @ 0x20000010) - Data: 85 46  returns 0x00 (0000ms, 13956ms total)
T13BC 20799:740 JLINK_ReadMem (0x20000012, 0x0002 Bytes, ...) -- Read from C cache (2 bytes @ 0x20000012) - Data: 0F 23  returns 0x00 (0001ms, 13957ms total)
T13BC 20799:741 JLINK_ReadMem (0x20000014, 0x0002 Bytes, ...) -- Read from C cache (2 bytes @ 0x20000014) - Data: 1A 1C  returns 0x00 (0000ms, 13957ms total)
T13BC 20799:741 JLINK_ReadMem (0x20000016, 0x0002 Bytes, ...) -- Read from C cache (2 bytes @ 0x20000016) - Data: 04 20  returns 0x00 (0000ms, 13957ms total)
T13BC 20799:742 JLINK_ReadMem (0x20000018, 0x0002 Bytes, ...) -- Read from C cache (2 bytes @ 0x20000018) - Data: 52 08  returns 0x00 (0000ms, 13957ms total)
T13BC 20799:742 JLINK_ReadMem (0x2000001A, 0x0002 Bytes, ...) -- Read from C cache (2 bytes @ 0x2000001A) - Data: 00 D3  returns 0x00 (0000ms, 13957ms total)
T13BC 20799:743 JLINK_ReadMem (0x20000326, 0x0004 Bytes, ...) -- Read from C cache (4 bytes @ 0x20000326) - Data: 01 BD 70 B5  returns 0x00 (0000ms, 13957ms total)
T13BC 20799:743 JLINK_ReadMem (0x20000000, 0x0002 Bytes, ...) -- Read from C cache (2 bytes @ 0x20000000) - Data: 00 00  returns 0x00 (0000ms, 13957ms total)
T13BC 20799:744 JLINK_ReadMem (0x20000002, 0x0002 Bytes, ...) -- Read from C cache (2 bytes @ 0x20000002) - Data: 00 00  returns 0x00 (0000ms, 13957ms total)
T13BC 20799:745 JLINK_ReadMem (0x20000004, 0x0002 Bytes, ...) -- Read from C cache (2 bytes @ 0x20000004) - Data: 00 00  returns 0x00 (0000ms, 13957ms total)
T13BC 20799:745 JLINK_ReadMem (0x20000006, 0x0002 Bytes, ...) -- Read from C cache (2 bytes @ 0x20000006) - Data: 00 00  returns 0x00 (0001ms, 13958ms total)
T13BC 20799:746 JLINK_ReadMem (0x20000008, 0x0002 Bytes, ...) -- Read from C cache (2 bytes @ 0x20000008) - Data: 00 00  returns 0x00 (0000ms, 13958ms total)
T13BC 20799:746 JLINK_ReadMem (0x2000000A, 0x0002 Bytes, ...) -- Read from C cache (2 bytes @ 0x2000000A) - Data: 00 00  returns 0x00 (0000ms, 13958ms total)
T13BC 20799:747 JLINK_ReadMem (0x2000000C, 0x0002 Bytes, ...) -- Read from C cache (2 bytes @ 0x2000000C) - Data: 00 00  returns 0x00 (0000ms, 13958ms total)
T13BC 20799:747 JLINK_ReadMem (0x2000000E, 0x0002 Bytes, ...) -- Read from C cache (2 bytes @ 0x2000000E) - Data: 00 00  returns 0x00 (0000ms, 13958ms total)
T13BC 20799:747 JLINK_ReadMem (0x20000010, 0x0002 Bytes, ...) -- Read from C cache (2 bytes @ 0x20000010) - Data: 85 46  returns 0x00 (0000ms, 13958ms total)
T13BC 20799:748 JLINK_ReadMem (0x20000012, 0x0002 Bytes, ...) -- Read from C cache (2 bytes @ 0x20000012) - Data: 0F 23  returns 0x00 (0000ms, 13958ms total)
T13BC 20799:748 JLINK_ReadMem (0x20000014, 0x0002 Bytes, ...) -- Read from C cache (2 bytes @ 0x20000014) - Data: 1A 1C  returns 0x00 (0000ms, 13958ms total)
T13BC 20799:749 JLINK_ReadMem (0x20000016, 0x0002 Bytes, ...) -- Read from C cache (2 bytes @ 0x20000016) - Data: 04 20  returns 0x00 (0000ms, 13958ms total)
T13BC 20799:749 JLINK_ReadMem (0x20000018, 0x0002 Bytes, ...) -- Read from C cache (2 bytes @ 0x20000018) - Data: 52 08  returns 0x00 (0000ms, 13958ms total)
T13BC 20799:749 JLINK_ReadMem (0x2000001A, 0x0002 Bytes, ...) -- Read from C cache (2 bytes @ 0x2000001A) - Data: 00 D3  returns 0x00 (0001ms, 13959ms total)
T13BC 20799:781 JLINK_ReadMemHW(0x00001120, 0x0001 Bytes, ...) -- CPU_ReadMem(1 bytes @ 0x00001120) - Data: 80  returns 0x00 (0002ms, 13961ms total)
T13BC 20799:835 JLINK_ReadReg(R15 (PC))  returns 0x000008F4 (0000ms, 13961ms total)
T13BC 20799:835 JLINK_GetNumBPUnits(Type = 0xFFFFFF02)  returns 0x04 (0000ms, 13961ms total)
T13BC 20799:835 JLINK_SetBPEx(Addr = 0x00001120, Type = 0xFFFFFF02)  returns 0x00000001 (0000ms, 13961ms total)
T13BC 20799:835 JLINK_GetBPInfo(BPHandle = 1)  returns 0x00 (0000ms, 13961ms total)
T13BC 20799:835 JLINK_Go() -- CPU_WriteMem(4 bytes @ 0xE0002000) -- CPU_ReadMem(4 bytes @ 0xE0001000) -- CPU_WriteMem(4 bytes @ 0xE0001000) -- CPU_WriteMem(4 bytes @ 0xE0002008) -- CPU_WriteMem(4 bytes @ 0xE000200C) -- CPU_WriteMem(4 bytes @ 0xE0002010) -- CPU_WriteMem(4 bytes @ 0xE0002014) -- CPU_WriteMem(4 bytes @ 0xE0001004) (0010ms, 13971ms total)
T0D30 20799:845 JLINK_IsHalted() -- CPU is running -- CPU_ReadMem(4 bytes @ 0x41002100)  returns FALSE (0002ms, 13973ms total)
T0D30 20799:867 JLINK_IsHalted()  returns TRUE (0008ms, 13979ms total)
T0D30 20799:875 JLINK_GetMOEs(...) -- CPU_ReadMem(4 bytes @ 0xE000ED30) -- CPU_WriteMem(4 bytes @ 0xE000ED30)  returns 0x01 (0002ms, 13973ms total)
T0D30 20799:877 JLINK_ReadReg(R15 (PC))  returns 0x00001120 (0000ms, 13973ms total)
T0D30 20799:877 JLINK_GetBPInfo(BPHandle = 1)  returns 0x00 (0000ms, 13973ms total)
T0D30 20799:877 JLINK_ClrBPEx(BPHandle = 0x00000001)  returns 0x00 (0000ms, 13973ms total)
T13BC 20799:890 JLINK_ReadReg(R15 (PC))  returns 0x00001120 (0000ms, 13973ms total)
T13BC 20799:890 JLINK_ReadReg(R13 (SP))  returns 0x200009A8 (0000ms, 13973ms total)
T13BC 20799:891 JLINK_ReadMemHW(0x00001120, 0x0004 Bytes, ...) -- CPU_ReadMem(4 bytes @ 0x00001120) - Data: 80 B5 00 AF  returns 0x00 (0003ms, 13976ms total)
T0CE8 20799:973 JLINK_ReadReg(R0)  returns 0x000025F0 (0000ms, 13976ms total)
T0CE8 20799:973 JLINK_ReadReg(R1)  returns 0x00000080 (0000ms, 13976ms total)
T0CE8 20799:973 JLINK_ReadReg(R2)  returns 0x00000080 (0000ms, 13976ms total)
T0CE8 20799:973 JLINK_ReadReg(R3)  returns 0x00001121 (0000ms, 13976ms total)
T0CE8 20799:973 JLINK_ReadReg(R4)  returns 0x2000065C (0000ms, 13976ms total)
T0CE8 20799:973 JLINK_ReadReg(R5)  returns 0x2000067C (0000ms, 13976ms total)
T0CE8 20799:973 JLINK_ReadReg(R6)  returns 0x2000067C (0001ms, 13977ms total)
T0CE8 20799:974 JLINK_ReadReg(R7)  returns 0x200009A8 (0000ms, 13977ms total)
T0CE8 20799:974 JLINK_ReadReg(R8)  returns 0xFDD3DBFF (0000ms, 13977ms total)
T0CE8 20799:974 JLINK_ReadReg(R9)  returns 0xFFBFFE3F (0000ms, 13977ms total)
T0CE8 20799:974 JLINK_ReadReg(R10)  returns 0xFB5FFF75 (0000ms, 13977ms total)
T0CE8 20799:974 JLINK_ReadReg(R11)  returns 0x7C7F7EFF (0000ms, 13977ms total)
T0CE8 20799:974 JLINK_ReadReg(R12)  returns 0xFF77FFFF (0000ms, 13977ms total)
T0CE8 20799:974 JLINK_ReadReg(R13 (SP))  returns 0x200009A8 (0000ms, 13977ms total)
T0CE8 20799:974 JLINK_ReadReg(R14)  returns 0x0000095D (0000ms, 13977ms total)
T0CE8 20799:974 JLINK_ReadReg(R15 (PC))  returns 0x00001120 (0000ms, 13977ms total)
T0CE8 20799:974 JLINK_ReadReg(APSR)  returns 0x60000000 (0000ms, 13977ms total)
T0CE8 20799:974 JLINK_ReadReg(MSP)  returns 0x200009A8 (0000ms, 13977ms total)
T0CE8 20799:974 JLINK_ReadReg(PSP)  returns 0xBEFBA3E8 (0000ms, 13977ms total)
T0CE8 20799:974 JLINK_ReadReg(XPSR)  returns 0x61000000 (0000ms, 13977ms total)
T0CE8 20799:974 JLINK_ReadReg(IPSR)  returns 0x00000000 (0000ms, 13977ms total)
T0CE8 20799:974 JLINK_ReadReg(EPSR)  returns 0x01000000 (0000ms, 13977ms total)
T0CE8 20799:974 JLINK_ReadReg(PRIMASK)  returns 0x00000000 (0000ms, 13977ms total)
T0CE8 20799:974 JLINK_ReadReg(FAULTMASK)  returns 0x00000000 (0000ms, 13977ms total)
T0CE8 20799:974 JLINK_ReadReg(BASEPRI)  returns 0x00000000 (0000ms, 13977ms total)
T0CE8 20799:974 JLINK_ReadReg(CONTROL)  returns 0x00000000 (0000ms, 13977ms total)
T0CE8 20799:992 JLINK_ReadReg(R0)  returns 0x000025F0 (0000ms, 13977ms total)
T0CE8 20799:992 JLINK_ReadReg(R1)  returns 0x00000080 (0000ms, 13977ms total)
T0CE8 20799:992 JLINK_ReadReg(R2)  returns 0x00000080 (0000ms, 13977ms total)
T0CE8 20799:992 JLINK_ReadReg(R3)  returns 0x00001121 (0000ms, 13977ms total)
T0CE8 20799:992 JLINK_ReadReg(R4)  returns 0x2000065C (0000ms, 13977ms total)
T0CE8 20799:992 JLINK_ReadReg(R5)  returns 0x2000067C (0000ms, 13977ms total)
T0CE8 20799:992 JLINK_ReadReg(R6)  returns 0x2000067C (0000ms, 13977ms total)
T0CE8 20799:992 JLINK_ReadReg(R7)  returns 0x200009A8 (0000ms, 13977ms total)
T0CE8 20799:992 JLINK_ReadReg(R8)  returns 0xFDD3DBFF (0000ms, 13977ms total)
T0CE8 20799:992 JLINK_ReadReg(R9)  returns 0xFFBFFE3F (0000ms, 13977ms total)
T0CE8 20799:992 JLINK_ReadReg(R10)  returns 0xFB5FFF75 (0000ms, 13977ms total)
T0CE8 20799:992 JLINK_ReadReg(R11)  returns 0x7C7F7EFF (0000ms, 13977ms total)
T0CE8 20799:992 JLINK_ReadReg(R12)  returns 0xFF77FFFF (0000ms, 13977ms total)
T0CE8 20799:992 JLINK_ReadReg(R13 (SP))  returns 0x200009A8 (0000ms, 13977ms total)
T0CE8 20799:992 JLINK_ReadReg(R14)  returns 0x0000095D (0000ms, 13977ms total)
T0CE8 20799:992 JLINK_ReadReg(R15 (PC))  returns 0x00001120 (0000ms, 13977ms total)
T0CE8 20799:992 JLINK_ReadReg(APSR)  returns 0x60000000 (0000ms, 13977ms total)
T0CE8 20799:992 JLINK_ReadReg(MSP)  returns 0x200009A8 (0000ms, 13977ms total)
T0CE8 20799:992 JLINK_ReadReg(PSP)  returns 0xBEFBA3E8 (0000ms, 13977ms total)
T0CE8 20799:992 JLINK_ReadReg(XPSR)  returns 0x61000000 (0000ms, 13977ms total)
T0CE8 20799:992 JLINK_ReadReg(IPSR)  returns 0x00000000 (0000ms, 13977ms total)
T0CE8 20799:992 JLINK_ReadReg(EPSR)  returns 0x01000000 (0000ms, 13977ms total)
T0CE8 20799:992 JLINK_ReadReg(PRIMASK)  returns 0x00000000 (0001ms, 13978ms total)
T0CE8 20799:993 JLINK_ReadReg(FAULTMASK)  returns 0x00000000 (0000ms, 13978ms total)
T0CE8 20799:993 JLINK_ReadReg(BASEPRI)  returns 0x00000000 (0000ms, 13978ms total)
T0CE8 20799:993 JLINK_ReadReg(CONTROL)  returns 0x00000000 (0000ms, 13978ms total)
T0CE8 20800:011 JLINK_ReadReg(R0)  returns 0x000025F0 (0000ms, 13978ms total)
T0CE8 20800:011 JLINK_ReadReg(R1)  returns 0x00000080 (0000ms, 13978ms total)
T0CE8 20800:011 JLINK_ReadReg(R2)  returns 0x00000080 (0000ms, 13978ms total)
T0CE8 20800:011 JLINK_ReadReg(R3)  returns 0x00001121 (0000ms, 13978ms total)
T0CE8 20800:011 JLINK_ReadReg(R4)  returns 0x2000065C (0000ms, 13978ms total)
T0CE8 20800:011 JLINK_ReadReg(R5)  returns 0x2000067C (0000ms, 13978ms total)
T0CE8 20800:011 JLINK_ReadReg(R6)  returns 0x2000067C (0000ms, 13978ms total)
T0CE8 20800:011 JLINK_ReadReg(R7)  returns 0x200009A8 (0000ms, 13978ms total)
T0CE8 20800:011 JLINK_ReadReg(R8)  returns 0xFDD3DBFF (0000ms, 13978ms total)
T0CE8 20800:011 JLINK_ReadReg(R9)  returns 0xFFBFFE3F (0000ms, 13978ms total)
T0CE8 20800:011 JLINK_ReadReg(R10)  returns 0xFB5FFF75 (0000ms, 13978ms total)
T0CE8 20800:011 JLINK_ReadReg(R11)  returns 0x7C7F7EFF (0000ms, 13978ms total)
T0CE8 20800:011 JLINK_ReadReg(R12)  returns 0xFF77FFFF (0000ms, 13978ms total)
T0CE8 20800:011 JLINK_ReadReg(R13 (SP))  returns 0x200009A8 (0000ms, 13978ms total)
T0CE8 20800:011 JLINK_ReadReg(R14)  returns 0x0000095D (0000ms, 13978ms total)
T0CE8 20800:011 JLINK_ReadReg(R15 (PC))  returns 0x00001120 (0000ms, 13978ms total)
T0CE8 20800:011 JLINK_ReadReg(APSR)  returns 0x60000000 (0000ms, 13978ms total)
T0CE8 20800:011 JLINK_ReadReg(MSP)  returns 0x200009A8 (0000ms, 13978ms total)
T0CE8 20800:011 JLINK_ReadReg(PSP)  returns 0xBEFBA3E8 (0001ms, 13979ms total)
T0CE8 20800:012 JLINK_ReadReg(XPSR)  returns 0x61000000 (0000ms, 13979ms total)
T0CE8 20800:012 JLINK_ReadReg(IPSR)  returns 0x00000000 (0000ms, 13979ms total)
T0CE8 20800:012 JLINK_ReadReg(EPSR)  returns 0x01000000 (0000ms, 13979ms total)
T0CE8 20800:012 JLINK_ReadReg(PRIMASK)  returns 0x00000000 (0000ms, 13979ms total)
T0CE8 20800:012 JLINK_ReadReg(FAULTMASK)  returns 0x00000000 (0000ms, 13979ms total)
T0CE8 20800:012 JLINK_ReadReg(BASEPRI)  returns 0x00000000 (0000ms, 13979ms total)
T0CE8 20800:012 JLINK_ReadReg(CONTROL)  returns 0x00000000 (0000ms, 13979ms total)
T0D30 20800:087 JLINK_IsHalted()  returns TRUE (0000ms, 13979ms total)
T0CE8 20800:116 JLINK_ReadMemHW(0x00000000, 0x00B4 Bytes, ...) -- CPU_ReadMem(180 bytes @ 0x00000000) - Data: B8 09 00 20 F5 08 00 00 89 09 00 00 89 09 00 00 ...  returns 0x00 (0003ms, 13982ms total)
T0CE8 20800:169 JLINK_GetDebugInfo(0x100) -- Value=0x41003003  returns 0x00 (0000ms, 13982ms total)
T0CE8 20800:169 JLINK_ReadMem (0x41003FF0, 0x0010 Bytes, ...) -- CPU_ReadMem(16 bytes @ 0x41003FF0) - Data: 0D 00 00 00 10 00 00 00 05 00 00 00 B1 00 00 00  returns 0x00 (0002ms, 13984ms total)
T0CE8 20800:171 JLINK_ReadMem (0x41003FD0, 0x0020 Bytes, ...) -- CPU_ReadMem(32 bytes @ 0x41003FD0) - Data: 00 00 00 00 00 00 00 00 00 00 00 00 00 00 00 00 ...  returns 0x00 (0001ms, 13985ms total)
T0CE8 20800:172 JLINK_ReadMemU32(0x41003000, 0x0001 Items, ...) -- CPU_ReadMem(4 bytes @ 0x41003000) - Data: 03 C0 0F 9F  returns 0x01 (0001ms, 13986ms total)
T0CE8 20800:173 JLINK_ReadMem (0xE00FFFF0, 0x0010 Bytes, ...) -- CPU_ReadMem(16 bytes @ 0xE00FFFF0) - Data: 0D 00 00 00 10 00 00 00 05 00 00 00 B1 00 00 00  returns 0x00 (0001ms, 13987ms total)
T0CE8 20800:174 JLINK_ReadMem (0xE00FFFD0, 0x0020 Bytes, ...) -- CPU_ReadMem(32 bytes @ 0xE00FFFD0) - Data: 04 00 00 00 00 00 00 00 00 00 00 00 00 00 00 00 ...  returns 0x00 (0001ms, 13988ms total)
T0CE8 20800:175 JLINK_ReadMemU32(0xE00FF000, 0x0001 Items, ...) -- CPU_ReadMem(4 bytes @ 0xE00FF000) - Data: 03 F0 F0 FF  returns 0x01 (0001ms, 13989ms total)
T0CE8 20800:176 JLINK_ReadMem (0xE000EFF0, 0x0010 Bytes, ...) -- CPU_ReadMem(16 bytes @ 0xE000EFF0) - Data: 0D 00 00 00 E0 00 00 00 05 00 00 00 B1 00 00 00  returns 0x00 (0001ms, 13990ms total)
T0CE8 20800:177 JLINK_ReadMem (0xE000EFD0, 0x0020 Bytes, ...) -- CPU_ReadMem(32 bytes @ 0xE000EFD0) - Data: 04 00 00 00 00 00 00 00 00 00 00 00 00 00 00 00 ...  returns 0x00 (0001ms, 13991ms total)
T0CE8 20800:178 JLINK_ReadMemU32(0xE00FF004, 0x0001 Items, ...) -- CPU_ReadMem(4 bytes @ 0xE00FF004) - Data: 03 20 F0 FF  returns 0x01 (0001ms, 13992ms total)
T0CE8 20800:179 JLINK_ReadMem (0xE0001FF0, 0x0010 Bytes, ...) -- CPU_ReadMem(16 bytes @ 0xE0001FF0) - Data: 0D 00 00 00 E0 00 00 00 05 00 00 00 B1 00 00 00  returns 0x00 (0001ms, 13993ms total)
T0CE8 20800:180 JLINK_ReadMem (0xE0001FD0, 0x0020 Bytes, ...) -- CPU_ReadMem(32 bytes @ 0xE0001FD0) - Data: 04 00 00 00 00 00 00 00 00 00 00 00 00 00 00 00 ...  returns 0x00 (0001ms, 13994ms total)
T0CE8 20800:181 JLINK_ReadMemU32(0xE00FF008, 0x0001 Items, ...) -- CPU_ReadMem(4 bytes @ 0xE00FF008) - Data: 03 30 F0 FF  returns 0x01 (0001ms, 13995ms total)
T0CE8 20800:182 JLINK_ReadMem (0xE0002FF0, 0x0010 Bytes, ...) -- CPU_ReadMem(16 bytes @ 0xE0002FF0) - Data: 0D 00 00 00 E0 00 00 00 05 00 00 00 B1 00 00 00  returns 0x00 (0001ms, 13996ms total)
T0CE8 20800:183 JLINK_ReadMem (0xE0002FD0, 0x0020 Bytes, ...) -- CPU_ReadMem(32 bytes @ 0xE0002FD0) - Data: 04 00 00 00 00 00 00 00 00 00 00 00 00 00 00 00 ...  returns 0x00 (0001ms, 13997ms total)
T0CE8 20800:184 JLINK_ReadMemU32(0xE00FF00C, 0x0001 Items, ...) -- CPU_ReadMem(4 bytes @ 0xE00FF00C) - Data: 00 00 00 00  returns 0x01 (0001ms, 13998ms total)
T0CE8 20800:185 JLINK_ReadMemU32(0x41003004, 0x0001 Items, ...) -- CPU_ReadMem(4 bytes @ 0x41003004) - Data: 00 00 00 00  returns 0x01 (0001ms, 13999ms total)
T0CE8 20800:186 JLINK_GetDebugInfo(0x100) -- Value=0x41003003  returns 0x00 (0000ms, 13999ms total)
T0CE8 20800:186 JLINK_ReadMem (0x41003FF0, 0x0010 Bytes, ...) -- CPU_ReadMem(16 bytes @ 0x41003FF0) - Data: 0D 00 00 00 10 00 00 00 05 00 00 00 B1 00 00 00  returns 0x00 (0001ms, 14000ms total)
T0CE8 20800:187 JLINK_ReadMem (0x41003FD0, 0x0020 Bytes, ...) -- CPU_ReadMem(32 bytes @ 0x41003FD0) - Data: 00 00 00 00 00 00 00 00 00 00 00 00 00 00 00 00 ...  returns 0x00 (0001ms, 14001ms total)
T0CE8 20800:188 JLINK_ReadMemU32(0x41003000, 0x0001 Items, ...) -- CPU_ReadMem(4 bytes @ 0x41003000) - Data: 03 C0 0F 9F  returns 0x01 (0001ms, 14002ms total)
T0CE8 20800:189 JLINK_ReadMem (0xE00FFFF0, 0x0010 Bytes, ...) -- CPU_ReadMem(16 bytes @ 0xE00FFFF0) - Data: 0D 00 00 00 10 00 00 00 05 00 00 00 B1 00 00 00  returns 0x00 (0001ms, 14003ms total)
T0CE8 20800:190 JLINK_ReadMem (0xE00FFFD0, 0x0020 Bytes, ...) -- CPU_ReadMem(32 bytes @ 0xE00FFFD0) - Data: 04 00 00 00 00 00 00 00 00 00 00 00 00 00 00 00 ...  returns 0x00 (0001ms, 14004ms total)
T0CE8 20800:191 JLINK_ReadMemU32(0xE00FF000, 0x0001 Items, ...) -- CPU_ReadMem(4 bytes @ 0xE00FF000) - Data: 03 F0 F0 FF  returns 0x01 (0001ms, 14005ms total)
T0CE8 20800:192 JLINK_ReadMem (0xE000EFF0, 0x0010 Bytes, ...) -- CPU_ReadMem(16 bytes @ 0xE000EFF0) - Data: 0D 00 00 00 E0 00 00 00 05 00 00 00 B1 00 00 00  returns 0x00 (0001ms, 14006ms total)
T0CE8 20800:193 JLINK_ReadMem (0xE000EFD0, 0x0020 Bytes, ...) -- CPU_ReadMem(32 bytes @ 0xE000EFD0) - Data: 04 00 00 00 00 00 00 00 00 00 00 00 00 00 00 00 ...  returns 0x00 (0001ms, 14007ms total)
T0CE8 20800:194 JLINK_ReadMemU32(0xE00FF004, 0x0001 Items, ...) -- CPU_ReadMem(4 bytes @ 0xE00FF004) - Data: 03 20 F0 FF  returns 0x01 (0001ms, 14008ms total)
T0CE8 20800:195 JLINK_ReadMem (0xE0001FF0, 0x0010 Bytes, ...) -- CPU_ReadMem(16 bytes @ 0xE0001FF0) - Data: 0D 00 00 00 E0 00 00 00 05 00 00 00 B1 00 00 00  returns 0x00 (0001ms, 14009ms total)
T0CE8 20800:196 JLINK_ReadMem (0xE0001FD0, 0x0020 Bytes, ...) -- CPU_ReadMem(32 bytes @ 0xE0001FD0) - Data: 04 00 00 00 00 00 00 00 00 00 00 00 00 00 00 00 ...  returns 0x00 (0001ms, 14010ms total)
T0CE8 20800:197 JLINK_ReadMemU32(0xE00FF008, 0x0001 Items, ...) -- CPU_ReadMem(4 bytes @ 0xE00FF008) - Data: 03 30 F0 FF  returns 0x01 (0001ms, 14011ms total)
T0CE8 20800:198 JLINK_ReadMem (0xE0002FF0, 0x0010 Bytes, ...) -- CPU_ReadMem(16 bytes @ 0xE0002FF0) - Data: 0D 00 00 00 E0 00 00 00 05 00 00 00 B1 00 00 00  returns 0x00 (0001ms, 14012ms total)
T0CE8 20800:199 JLINK_ReadMem (0xE0002FD0, 0x0020 Bytes, ...) -- CPU_ReadMem(32 bytes @ 0xE0002FD0) - Data: 04 00 00 00 00 00 00 00 00 00 00 00 00 00 00 00 ...  returns 0x00 (0001ms, 14013ms total)
T0CE8 20800:200 JLINK_ReadMemU32(0xE00FF00C, 0x0001 Items, ...) -- CPU_ReadMem(4 bytes @ 0xE00FF00C) - Data: 00 00 00 00  returns 0x01 (0001ms, 14014ms total)
T0CE8 20800:201 JLINK_ReadMemU32(0x41003004, 0x0001 Items, ...) -- CPU_ReadMem(4 bytes @ 0x41003004) - Data: 00 00 00 00  returns 0x01 (0001ms, 14015ms total)
T0CE8 20800:202 JLINK_GetDebugInfo(0x100) -- Value=0x41003003  returns 0x00 (0000ms, 14015ms total)
T0CE8 20800:202 JLINK_ReadMem (0x41003FF0, 0x0010 Bytes, ...) -- CPU_ReadMem(16 bytes @ 0x41003FF0) - Data: 0D 00 00 00 10 00 00 00 05 00 00 00 B1 00 00 00  returns 0x00 (0001ms, 14016ms total)
T0CE8 20800:203 JLINK_ReadMem (0x41003FD0, 0x0020 Bytes, ...) -- CPU_ReadMem(32 bytes @ 0x41003FD0) - Data: 00 00 00 00 00 00 00 00 00 00 00 00 00 00 00 00 ...  returns 0x00 (0001ms, 14017ms total)
T0CE8 20800:204 JLINK_ReadMemU32(0x41003000, 0x0001 Items, ...) -- CPU_ReadMem(4 bytes @ 0x41003000) - Data: 03 C0 0F 9F  returns 0x01 (0001ms, 14018ms total)
T0CE8 20800:205 JLINK_ReadMem (0xE00FFFF0, 0x0010 Bytes, ...) -- CPU_ReadMem(16 bytes @ 0xE00FFFF0) - Data: 0D 00 00 00 10 00 00 00 05 00 00 00 B1 00 00 00  returns 0x00 (0001ms, 14019ms total)
T0CE8 20800:206 JLINK_ReadMem (0xE00FFFD0, 0x0020 Bytes, ...) -- CPU_ReadMem(32 bytes @ 0xE00FFFD0) - Data: 04 00 00 00 00 00 00 00 00 00 00 00 00 00 00 00 ...  returns 0x00 (0001ms, 14020ms total)
T0CE8 20800:207 JLINK_ReadMemU32(0xE00FF000, 0x0001 Items, ...) -- CPU_ReadMem(4 bytes @ 0xE00FF000) - Data: 03 F0 F0 FF  returns 0x01 (0001ms, 14021ms total)
T0CE8 20800:208 JLINK_ReadMem (0xE000EFF0, 0x0010 Bytes, ...) -- CPU_ReadMem(16 bytes @ 0xE000EFF0) - Data: 0D 00 00 00 E0 00 00 00 05 00 00 00 B1 00 00 00  returns 0x00 (0001ms, 14022ms total)
T0CE8 20800:209 JLINK_ReadMem (0xE000EFD0, 0x0020 Bytes, ...) -- CPU_ReadMem(32 bytes @ 0xE000EFD0) - Data: 04 00 00 00 00 00 00 00 00 00 00 00 00 00 00 00 ...  returns 0x00 (0001ms, 14023ms total)
T0CE8 20800:210 JLINK_ReadMemU32(0xE00FF004, 0x0001 Items, ...) -- CPU_ReadMem(4 bytes @ 0xE00FF004) - Data: 03 20 F0 FF  returns 0x01 (0001ms, 14024ms total)
T0CE8 20800:211 JLINK_ReadMem (0xE0001FF0, 0x0010 Bytes, ...) -- CPU_ReadMem(16 bytes @ 0xE0001FF0) - Data: 0D 00 00 00 E0 00 00 00 05 00 00 00 B1 00 00 00  returns 0x00 (0001ms, 14025ms total)
T0CE8 20800:212 JLINK_ReadMem (0xE0001FD0, 0x0020 Bytes, ...) -- CPU_ReadMem(32 bytes @ 0xE0001FD0) - Data: 04 00 00 00 00 00 00 00 00 00 00 00 00 00 00 00 ...  returns 0x00 (0001ms, 14026ms total)
T0CE8 20800:213 JLINK_ReadMemU32(0xE00FF008, 0x0001 Items, ...) -- CPU_ReadMem(4 bytes @ 0xE00FF008) - Data: 03 30 F0 FF  returns 0x01 (0001ms, 14027ms total)
T0CE8 20800:214 JLINK_ReadMem (0xE0002FF0, 0x0010 Bytes, ...) -- CPU_ReadMem(16 bytes @ 0xE0002FF0) - Data: 0D 00 00 00 E0 00 00 00 05 00 00 00 B1 00 00 00  returns 0x00 (0001ms, 14028ms total)
T0CE8 20800:215 JLINK_ReadMem (0xE0002FD0, 0x0020 Bytes, ...) -- CPU_ReadMem(32 bytes @ 0xE0002FD0) - Data: 04 00 00 00 00 00 00 00 00 00 00 00 00 00 00 00 ...  returns 0x00 (0001ms, 14029ms total)
T0CE8 20800:216 JLINK_ReadMemU32(0xE00FF00C, 0x0001 Items, ...) -- CPU_ReadMem(4 bytes @ 0xE00FF00C) - Data: 00 00 00 00  returns 0x01 (0001ms, 14030ms total)
T0CE8 20800:217 JLINK_ReadMemU32(0x41003004, 0x0001 Items, ...) -- CPU_ReadMem(4 bytes @ 0x41003004) - Data: 00 00 00 00  returns 0x01 (0001ms, 14031ms total)
T0CE8 20800:218 JLINK_GetDebugInfo(0x100) -- Value=0x41003003  returns 0x00 (0000ms, 14031ms total)
T0CE8 20800:218 JLINK_ReadMem (0x41003FF0, 0x0010 Bytes, ...) -- CPU_ReadMem(16 bytes @ 0x41003FF0) - Data: 0D 00 00 00 10 00 00 00 05 00 00 00 B1 00 00 00  returns 0x00 (0001ms, 14032ms total)
T0CE8 20800:219 JLINK_ReadMem (0x41003FD0, 0x0020 Bytes, ...) -- CPU_ReadMem(32 bytes @ 0x41003FD0) - Data: 00 00 00 00 00 00 00 00 00 00 00 00 00 00 00 00 ...  returns 0x00 (0001ms, 14033ms total)
T0CE8 20800:220 JLINK_ReadMemU32(0x41003000, 0x0001 Items, ...) -- CPU_ReadMem(4 bytes @ 0x41003000) - Data: 03 C0 0F 9F  returns 0x01 (0001ms, 14034ms total)
T0CE8 20800:221 JLINK_ReadMem (0xE00FFFF0, 0x0010 Bytes, ...) -- CPU_ReadMem(16 bytes @ 0xE00FFFF0) - Data: 0D 00 00 00 10 00 00 00 05 00 00 00 B1 00 00 00  returns 0x00 (0001ms, 14035ms total)
